    01 06 00 1a 00 00 a8 0d                           ......¨.         
    01 06 00 1c 00 00 48 0c                           ......H.         
    01 06 00 15 00 c8 99 98                           .....È™˜         
    01 06 00 18 00 64 08 26                           .....d.&         
    01 06 00 1b 03 e8 f9 73                           .....èùs         
    01 06 00 19 00 01 99 cd                           ......™Í         
    01 06 00 16 00 78 68 2c                           .....xh,         
    01 06 00 d0 00 64 89 d8                           ...Ð.d‰Ø         
    01 06 00 41 00 01 18 1e                           ...A....         
    01 06 00 42 00 00 29 de                           ...B..)Þ         
    01 06 00 09 00 01 98 08                           ......˜.         
    01 06 00 14 00 01 08 0e                           ........         
    01 03 02 00 01 79 84                              .....y„          
    01 03 02 00 01 79 84                              .....y„          
    01 03 02 00 01 79 84                              .....y„          
    01 03 02 00 01 79 84                              .....y„          
    01 03 02 00 01 79 84                              .....y„          
    01 03 02 00 01 79 84                              .....y„          
    01 03 02 00 01 79 84                              .....y„          
    01 03 02 00 01 79 84                              .....y„          
    01 03 02 00 01 79 84                              .....y„          
    01 03 02 00 01 79 84                              .....y„          
    01 03 02 00 02 39 85                              .....9…          
    01 03 90 ff fc ff fb ff fb ff fb ff fb ff fb ff   ..ÿüÿûÿûÿûÿûÿûÿ 
    fb ff fb ff fb ff fb ff fb ff fb ff fb ff fb ff   ûÿûÿûÿûÿûÿûÿûÿûÿ 
    fb ff fa ff fa ff fa ff fa ff fa ff fa ff fa ff   ûÿúÿúÿúÿúÿúÿúÿúÿ 
    fa ff fa ff fa ff fa ff fb ff fa ff fa ff fa ff   úÿúÿúÿúÿûÿúÿúÿúÿ 
    fa ff fa ff fa ff fa ff fa ff fa ff fa ff fa ff   úÿúÿúÿúÿúÿúÿúÿúÿ 
    fa ff fa ff fa ff fa ff fb ff fb ff fa ff fa ff   úÿúÿúÿúÿûÿûÿúÿúÿ 
    fa ff fa ff fa ff fa ff fb ff fb ff fb ff fb ff   úÿúÿúÿúÿûÿûÿûÿûÿ 
    fb ff fb ff fb ff fb ff fb ff fb ff fb ff fb ff   ûÿûÿûÿûÿûÿûÿûÿûÿ 
    fb ff fb ff fb ff fc ff fc ff fc ff fc ff fc ff   ûÿûÿûÿüÿüÿüÿüÿüÿ 
    fc ff fc ff fc ff fb ff fb ff fc ff fc ff fc ff   üÿüÿüÿûÿûÿüÿüÿüÿ 
    fc ff fc ff fc ff fc ff fc ff fc ff fc ff fc ff   üÿüÿüÿüÿüÿüÿüÿüÿ 
    fc ff ff ff fe 00 00 00 00 ff ff ff ff 00 00 ff   üÿÿÿþ....ÿÿÿÿ..ÿ 
    ff ff ff ff ff ff ff ff ff ff ff ff ff ff ff ff   ÿÿÿÿÿÿÿÿÿÿÿÿÿÿÿÿ 
    ff ff ff ff ff ff ff ff ff ff ff ff ff ff ff ff   ÿÿÿÿÿÿÿÿÿÿÿÿÿÿÿÿ 
    ff ff ff ff ff ff ff ff ff ff ff ff ff ff ff ff   ÿÿÿÿÿÿÿÿÿÿÿÿÿÿÿÿ 
    ff ff ff ff ff ff ff ff ff ff ff ff ff ff ff ff   ÿÿÿÿÿÿÿÿÿÿÿÿÿÿÿÿ 
    ff ff ff ff ff ff ff ff ff ff ff ff ff ff ff ff   ÿÿÿÿÿÿÿÿÿÿÿÿÿÿÿÿ 
    ff ff ff ff ff ff ff ff ff ff ff ff ff ff ff ff   ÿÿÿÿÿÿÿÿÿÿÿÿÿÿÿÿ 
    ff ff ff ff ff ff ff ff ff ff ff ff ff ff ff ff   ÿÿÿÿÿÿÿÿÿÿÿÿÿÿÿÿ 
    ff ff ff ff ff ff ff ff ff ff ff ff ff ff ff ff   ÿÿÿÿÿÿÿÿÿÿÿÿÿÿÿÿ 
    ff ff ff ff ff ff ff ff ff ff ff ff ff ff ff ff   ÿÿÿÿÿÿÿÿÿÿÿÿÿÿÿÿ 
    ff ff ff ff ff ff ff ff ff ff ff ff ff ff ff ff   ÿÿÿÿÿÿÿÿÿÿÿÿÿÿÿÿ 
    ff ff ff ff ff ff ff ff ff ff ff ff ff ff ff ff   ÿÿÿÿÿÿÿÿÿÿÿÿÿÿÿÿ 
    ff ff ff ff ff ff ff ff ff ff ff ff ff ff ff ff   ÿÿÿÿÿÿÿÿÿÿÿÿÿÿÿÿ 
    ff ff ff ff ff ff ff ff ff ff ff ff ff ff ff ff   ÿÿÿÿÿÿÿÿÿÿÿÿÿÿÿÿ 
    ff ff ff 01 76                                    ÿÿÿ.v            
    01 03 02 00 01 79 84                              .....y„          
    01 03 02 00 01 79 84                              .....y„          
    01 03 02 00 01 79 84                              .....y„          
    01 03 02 00 01 79 84                              .....y„          
    01 03 02 00 01 79 84                              .....y„          
    01 03 02 00 01 79 84                              .....y„          
    01 03 02 00 01 79 84                              .....y„          
    01 03 02 00 01 79 84                              .....y„          
    01 03 02 00 02 39 85                              .....9…          
    01 03 90 ff ff ff ff ff ff ff ff ff ff ff ff ff   ..ÿÿÿÿÿÿÿÿÿÿÿÿÿ 
    ff ff ff ff ff ff ff ff ff ff ff ff ff ff ff ff   ÿÿÿÿÿÿÿÿÿÿÿÿÿÿÿÿ 
    ff ff ff ff ff ff ff ff ff ff ff ff ff ff ff ff   ÿÿÿÿÿÿÿÿÿÿÿÿÿÿÿÿ 
    ff ff ff ff ff ff ff ff ff ff ff ff ff ff ff ff   ÿÿÿÿÿÿÿÿÿÿÿÿÿÿÿÿ 
    ff ff ff ff ff ff ff ff ff ff ff ff ff ff ff ff   ÿÿÿÿÿÿÿÿÿÿÿÿÿÿÿÿ 
    ff ff ff ff ff ff ff ff ff ff ff ff ff ff ff ff   ÿÿÿÿÿÿÿÿÿÿÿÿÿÿÿÿ 
    ff ff ff ff ff ff ff ff ff ff ff ff ff ff ff ff   ÿÿÿÿÿÿÿÿÿÿÿÿÿÿÿÿ 
    ff ff ff ff ff ff ff ff ff ff ff ff ff ff ff ff   ÿÿÿÿÿÿÿÿÿÿÿÿÿÿÿÿ 
    ff ff ff ff ff ff ff ff ff ff ff ff ff ff ff ff   ÿÿÿÿÿÿÿÿÿÿÿÿÿÿÿÿ 
    ff ff ff ff ff ff ff ff ff 00 00 00 00 00 00 00   ÿÿÿÿÿÿÿÿÿ....... 
    00 00 00 00 00 00 00 00 00 00 00 00 00 00 00 00   ................ 
    00 00 00 00 00 00 00 00 00 00 00 00 00 00 00 00   ................ 
    00 00 00 00 00 00 00 00 00 00 00 00 00 00 00 00   ................ 
    00 00 00 00 00 00 00 00 00 00 00 00 00 00 00 00   ................ 
    00 00 00 00 00 00 00 00 00 00 00 00 00 00 00 00   ................ 
    00 00 00 00 00 00 00 00 00 00 00 00 00 00 00 00   ................ 
    00 00 00 00 00 00 00 00 00 00 00 00 00 00 00 00   ................ 
    00 00 00 00 00 00 00 00 00 00 00 00 00 00 00 00   ................ 
    00 00 00 00 00 00 00 00 00 00 00 00 00 00 00 00   ................ 
    00 00 00 00 00 00 00 00 00 00 00 00 00 00 00 00   ................ 
    00 00 00 00 00 00 00 00 00 00 00 00 00 00 00 00   ................ 
    00 00 00 00 00 00 00 00 00 00 00 00 00 00 00 00   ................ 
    00 00 00 00 00 00 00 00 00 00 00 00 00 00 00 00   ................ 
    00 00 00 00 00 00 00 00 00 00 00 00 00 00 00 00   ................ 
    00 00 00 00 00 00 00 00 00 00 00 00 00 00 00 00   ................ 
    00 00 00 48 67                                    ...Hg            
    01 03 02 00 01 79 84                              .....y„          
    01 03 02 00 01 79 84                              .....y„          
    01 03 02 00 01 79 84                              .....y„          
    01 03 02 00 01 79 84                              .....y„          
    01 03 02 00 01 79 84                              .....y„          
    01 03 02 00 01 79 84                              .....y„          
    01 03 02 00 01 79 84                              .....y„          
    01 03 02 00 01 79 84                              .....y„          
    01 03 02 00 02 39 85                              .....9…          
    01 03 90 00 00 00 00 00 00 00 00 00 00 00 00 00   ............... 
    00 00 00 00 00 00 00 00 00 00 00 00 00 00 00 00   ................ 
    00 00 00 00 00 00 00 00 00 00 00 00 00 00 00 00   ................ 
    00 00 00 00 00 00 00 00 00 00 00 00 00 00 00 00   ................ 
    00 00 00 00 00 00 00 00 00 00 00 00 00 00 00 00   ................ 
    00 00 00 00 00 00 00 00 00 00 00 00 00 00 00 00   ................ 
    00 00 00 00 00 00 00 00 00 00 00 00 00 00 00 00   ................ 
    00 00 00 00 00 00 00 00 00 00 00 00 00 00 00 00   ................ 
    00 00 00 00 00 00 00 00 00 00 00 00 00 00 00 00   ................ 
    00 00 00 00 00 00 00 00 00 00 00 00 00 00 00 00   ................ 
    00 00 00 00 00 00 00 00 00 00 00 00 00 00 00 00   ................ 
    00 00 00 00 00 00 00 00 00 00 00 00 00 00 00 00   ................ 
    00 00 00 00 00 00 00 00 00 00 00 00 00 00 00 00   ................ 
    00 00 00 00 00 00 00 00 00 00 00 00 00 00 00 00   ................ 
    00 00 00 00 00 00 00 00 00 00 00 00 00 00 00 00   ................ 
    00 00 00 00 00 00 00 00 00 00 00 00 00 00 00 00   ................ 
    00 00 00 00 00 00 00 00 00 00 00 00 00 00 00 00   ................ 
    00 00 00 00 00 00 00 00 00 00 00 00 00 00 00 00   ................ 
    00 00 00 00 00 00 00 00 00 00 00 00 00 00 00 00   ................ 
    00 00 00 00 00 00 00 00 00 00 00 00 00 00 00 00   ................ 
    00 00 00 00 00 00 00 00 00 00 00 00 00 00 00 00   ................ 
    00 00 00 00 00 00 00 00 00 00 00 00 00 00 00 00   ................ 
    00 00 00 00 00 00 00 00 00 00 00 00 00 00 00 00   ................ 
    00 00 00 00 00 00 00 00 00 00 00 00 00 00 00 00   ................ 
    00 00 00 00 00 00 00 00 00 00 00 00 00 00 00 00   ................ 
    00 00 00 87 92                                    ...‡’            
    01 03 02 00 01 79 84                              .....y„          
    01 03 02 00 01 79 84                              .....y„          
    01 03 02 00 01 79 84                              .....y„          
    01 06 00 09 00 00 59 c8                           ......YÈ         
