    01 03 00 00 00 01 84 0a                           ......„.         
    01 03 00 01 00 01 d5 ca                           ......ÕÊ         
    01 03 00 0e 00 01 e5 c9                           ......åÉ         
    01 03 00 0f 00 01 b4 09                           ......´.         
    01 03 00 12 00 01 24 0f                           ......$.         
    01 03 00 06 00 01 64 0b                           ......d.         
    01 03 00 07 00 01 35 cb                           ......5Ë         
    01 03 00 08 00 01 05 c8                           .......È         
    01 03 00 0d 00 01 15 c9                           .......É         
    01 03 00 50 00 01 84 1b                           ...P..„.         
    01 03 00 51 00 01 d5 db                           ...Q..ÕÛ         
    01 03 00 52 00 01 25 db                           ...R..%Û         
    01 03 00 53 00 01 74 1b                           ...S..t.         
    01 03 00 96 00 01 64 26                           ...–..d&         
    01 03 00 97 00 01 35 e6                           ...—..5æ         
    01 03 00 54 00 01 c5 da                           ...T..ÅÚ         
    01 03 00 55 00 01 94 1a                           ...U..”.         
    01 03 00 4f 00 01 b5 dd                           ...O..µÝ         
    01 03 00 ff 00 01 b4 3a                           ...ÿ..´:         
    01 03 00 ff 00 01 b4 3a                           ...ÿ..´:         
    01 03 00 ff 00 01 b4 3a                           ...ÿ..´:         
    01 03 00 40 00 01 85 de                           ...@..…Þ         
