    01 06 00 1a 00 00 a8 0d                           ......¨.         
    01 06 00 1c 00 00 48 0c                           ......H.         
    01 06 00 15 00 64 99 e5                           .....d™å         
    01 06 00 18 00 64 08 26                           .....d.&         
    01 06 00 1b 03 e8 f9 73                           .....èùs         
    01 06 00 19 00 05 98 0e                           ......˜.         
    01 06 00 16 00 78 68 2c                           .....xh,         
    01 06 00 d0 00 64 89 d8                           ...Ð.d‰Ø         
    01 06 00 41 00 01 18 1e                           ...A....         
    01 06 00 42 00 00 29 de                           ...B..)Þ         
    01 06 00 09 00 01 98 08                           ......˜.         
    01 06 00 14 00 01 08 0e                           ........         
    01 03 02 00 01 79 84                              .....y„          
    01 03 02 00 01 79 84                              .....y„          
    01 03 02 00 01 79 84                              .....y„          
    01 03 02 00 01 79 84                              .....y„          
    01 03 02 00 01 79 84                              .....y„          
    01 03 02 00 01 79 84                              .....y„          
    01 03 02 00 01 79 84                              .....y„          
    01 03 02 00 01 79 84                              .....y„          
    01 03 02 00 01 79 84                              .....y„          
    01 03 02 00 01 79 84                              .....y„          
    01 03 02 00 02 39 85                              .....9…          
    01 03 90 ff fb ff fc ff fc ff fc ff fa ff fb ff   ..ÿûÿüÿüÿüÿúÿûÿ 
    fa ff fb ff fb ff fb ff fb ff fb ff fb ff fb ff   úÿûÿûÿûÿûÿûÿûÿûÿ 
    fb ff fb ff fb ff fb ff fa ff fa ff fa ff fa ff   ûÿûÿûÿûÿúÿúÿúÿúÿ 
    fa ff fa ff fa ff fa ff fa ff fa ff fa ff fa ff   úÿúÿúÿúÿúÿúÿúÿúÿ 
    fa ff fa ff f9 ff fa ff f9 ff fa ff fa ff fa ff   úÿúÿùÿúÿùÿúÿúÿúÿ 
    fa ff fa ff fa ff fa ff fa ff fa ff fb ff fb ff   úÿúÿúÿúÿúÿúÿûÿûÿ 
    fb ff fa ff fa ff fa ff fa ff fa ff fa ff fb ff   ûÿúÿúÿúÿúÿúÿúÿûÿ 
    fb ff fb ff fb ff fb ff fb ff fb ff fc ff fb ff   ûÿûÿûÿûÿûÿûÿüÿûÿ 
    fb ff fb ff fb ff fb ff fb ff fc ff fb ff fc ff   ûÿûÿûÿûÿûÿüÿûÿüÿ 
    fc ff fc ff fc ff fc ff fc ff fb ff fb ff fb ff   üÿüÿüÿüÿüÿûÿûÿûÿ 
    fc ff fb ff fc ff fc ff fc ff fc ff fc ff fc ff   üÿûÿüÿüÿüÿüÿüÿüÿ 
    fc ff fd ff fd ff fd 00 00 ff ff 00 00 ff ff ff   üÿýÿýÿý..ÿÿ..ÿÿÿ 
    ff ff ff ff ff ff ff ff ff ff ff ff ff ff ff ff   ÿÿÿÿÿÿÿÿÿÿÿÿÿÿÿÿ 
    ff ff ff ff ff ff ff ff ff ff ff ff ff ff ff ff   ÿÿÿÿÿÿÿÿÿÿÿÿÿÿÿÿ 
    ff ff ff ff ff ff ff ff ff ff ff ff ff ff ff ff   ÿÿÿÿÿÿÿÿÿÿÿÿÿÿÿÿ 
    ff ff ff ff ff ff ff ff ff ff ff ff ff ff ff ff   ÿÿÿÿÿÿÿÿÿÿÿÿÿÿÿÿ 
    ff ff ff ff ff ff ff ff ff ff ff ff ff ff ff ff   ÿÿÿÿÿÿÿÿÿÿÿÿÿÿÿÿ 
    ff ff ff ff ff ff ff ff ff ff ff ff ff ff ff ff   ÿÿÿÿÿÿÿÿÿÿÿÿÿÿÿÿ 
    ff ff ff ff ff ff ff ff ff ff ff ff ff ff ff ff   ÿÿÿÿÿÿÿÿÿÿÿÿÿÿÿÿ 
    ff ff ff ff ff ff ff ff ff ff ff ff ff ff ff ff   ÿÿÿÿÿÿÿÿÿÿÿÿÿÿÿÿ 
    ff ff ff ff ff ff ff ff ff ff ff ff ff ff ff ff   ÿÿÿÿÿÿÿÿÿÿÿÿÿÿÿÿ 
    ff ff ff ff ff ff ff ff ff ff ff ff ff ff ff ff   ÿÿÿÿÿÿÿÿÿÿÿÿÿÿÿÿ 
    ff ff ff ff ff ff ff ff ff ff ff ff ff ff ff ff   ÿÿÿÿÿÿÿÿÿÿÿÿÿÿÿÿ 
    ff ff ff ff ff ff ff ff ff ff ff ff ff ff ff ff   ÿÿÿÿÿÿÿÿÿÿÿÿÿÿÿÿ 
    ff ff ff ff ff ff ff ff ff ff ff ff ff ff ff ff   ÿÿÿÿÿÿÿÿÿÿÿÿÿÿÿÿ 
    ff ff ff 88 53                                    ÿÿÿˆS            
    01 03 02 00 01 79 84                              .....y„          
    01 03 02 00 01 79 84                              .....y„          
    01 03 02 00 01 79 84                              .....y„          
    01 03 02 00 01 79 84                              .....y„          
    01 03 02 00 01 79 84                              .....y„          
    01 03 02 00 01 79 84                              .....y„          
    01 03 02 00 01 79 84                              .....y„          
    01 03 02 00 01 79 84                              .....y„          
    01 03 02 00 02 39 85                              .....9…          
    01 03 90 ff ff ff ff ff ff ff ff ff ff ff ff ff   ..ÿÿÿÿÿÿÿÿÿÿÿÿÿ 
    ff ff ff ff ff ff ff ff ff ff ff ff ff ff ff ff   ÿÿÿÿÿÿÿÿÿÿÿÿÿÿÿÿ 
    ff ff ff ff ff ff ff ff ff ff ff ff ff ff ff ff   ÿÿÿÿÿÿÿÿÿÿÿÿÿÿÿÿ 
    ff ff ff ff ff ff ff ff ff ff ff ff ff ff ff ff   ÿÿÿÿÿÿÿÿÿÿÿÿÿÿÿÿ 
    ff ff ff ff ff ff ff ff ff ff ff ff ff ff ff ff   ÿÿÿÿÿÿÿÿÿÿÿÿÿÿÿÿ 
    ff ff ff ff ff ff ff ff ff ff ff ff ff ff ff ff   ÿÿÿÿÿÿÿÿÿÿÿÿÿÿÿÿ 
    ff ff ff ff ff ff ff ff ff ff ff ff ff ff ff ff   ÿÿÿÿÿÿÿÿÿÿÿÿÿÿÿÿ 
    ff ff ff ff ff ff ff ff ff ff ff ff ff ff ff ff   ÿÿÿÿÿÿÿÿÿÿÿÿÿÿÿÿ 
    ff ff ff ff ff ff ff ff ff ff ff ff ff ff ff ff   ÿÿÿÿÿÿÿÿÿÿÿÿÿÿÿÿ 
    ff ff ff ff fd ff fd ff fc ff fa ff fc ff fc ff   ÿÿÿÿýÿýÿüÿúÿüÿüÿ 
    fb ff fd ff fb ff fc ff fb ff fc ff fb ff fc ff   ûÿýÿûÿüÿûÿüÿûÿüÿ 
    fa ff fb ff fa ff fb ff fa ff fb ff fa ff fb ff   úÿûÿúÿûÿúÿûÿúÿûÿ 
    fa ff fb ff fa ff fb ff fa ff fb ff f9 ff fa ff   úÿûÿúÿûÿúÿûÿùÿúÿ 
    f9 ff fa ff f9 ff fa ff f9 ff fa ff fa ff fa ff   ùÿúÿùÿúÿùÿúÿúÿúÿ 
    fa ff fb ff fa ff fb ff fa ff fa ff f9 ff fa ff   úÿûÿúÿûÿúÿúÿùÿúÿ 
    f9 ff fa ff f9 ff fa ff f9 ff fa ff fa ff fa ff   ùÿúÿùÿúÿùÿúÿúÿúÿ 
    fa ff fb ff fa ff fa ff f9 ff fa ff f9 ff fa ff   úÿûÿúÿúÿùÿúÿùÿúÿ 
    fa ff fb ff fa ff fb ff fa ff fb ff fa ff fb ff   úÿûÿúÿûÿúÿûÿúÿûÿ 
    fb ff fb ff fa ff fb ff fa ff fb ff fa ff fb ff   ûÿûÿúÿûÿúÿûÿúÿûÿ 
    fa ff fc ff fb ff fc ff fb ff fc ff fb ff fc ff   úÿüÿûÿüÿûÿüÿûÿüÿ 
    fa ff fb ff fb ff fb ff fb ff fc ff fb ff fc ff   úÿûÿûÿûÿûÿüÿûÿüÿ 
    fb ff fc ff fb ff fc ff fb ff fc ff fc ff ff ff   ûÿüÿûÿüÿûÿüÿüÿÿÿ 
    ff 00 00 00 00 ff ff ff ff ff ff ff ff ff ff ff   ÿ....ÿÿÿÿÿÿÿÿÿÿÿ 
    ff ff ff ff ff ff ff ff ff ff ff ff ff ff ff ff   ÿÿÿÿÿÿÿÿÿÿÿÿÿÿÿÿ 
    ff ff ff ff ff ff ff ff ff ff ff ff ff ff ff ff   ÿÿÿÿÿÿÿÿÿÿÿÿÿÿÿÿ 
    ff ff ff b5 da                                    ÿÿÿµÚ            
    01 03 02 00 01 79 84                              .....y„          
    01 03 02 00 01 79 84                              .....y„          
    01 03 02 00 01 79 84                              .....y„          
    01 03 02 00 01 79 84                              .....y„          
    01 03 02 00 01 79 84                              .....y„          
    01 03 02 00 01 79 84                              .....y„          
    01 03 02 00 01 79 84                              .....y„          
    01 03 02 00 01 79 84                              .....y„          
    01 03 02 00 02 39 85                              .....9…          
    01 03 90 ff ff ff ff ff ff ff ff ff ff ff ff ff   ..ÿÿÿÿÿÿÿÿÿÿÿÿÿ 
    ff ff ff ff ff ff ff ff ff ff ff ff ff ff ff ff   ÿÿÿÿÿÿÿÿÿÿÿÿÿÿÿÿ 
    ff ff ff ff ff ff ff ff ff ff ff ff ff ff ff ff   ÿÿÿÿÿÿÿÿÿÿÿÿÿÿÿÿ 
    ff ff ff ff ff ff ff ff ff ff ff ff ff ff ff ff   ÿÿÿÿÿÿÿÿÿÿÿÿÿÿÿÿ 
    ff ff ff ff ff ff ff ff ff ff ff ff ff ff ff ff   ÿÿÿÿÿÿÿÿÿÿÿÿÿÿÿÿ 
    ff ff ff ff ff ff ff ff ff ff ff ff ff ff ff ff   ÿÿÿÿÿÿÿÿÿÿÿÿÿÿÿÿ 
    ff ff ff ff ff ff ff ff ff ff ff ff ff ff ff ff   ÿÿÿÿÿÿÿÿÿÿÿÿÿÿÿÿ 
    ff ff ff ff ff ff ff ff ff ff ff ff ff ff ff ff   ÿÿÿÿÿÿÿÿÿÿÿÿÿÿÿÿ 
    ff ff ff ff ff ff ff ff ff ff ff ff ff ff ff ff   ÿÿÿÿÿÿÿÿÿÿÿÿÿÿÿÿ 
    ff ff ff ff ff ff ff ff ff ff ff ff ff ff ff ff   ÿÿÿÿÿÿÿÿÿÿÿÿÿÿÿÿ 
    ff ff ff ff ff ff ff ff ff ff ff ff ff ff ff ff   ÿÿÿÿÿÿÿÿÿÿÿÿÿÿÿÿ 
    ff ff ff ff ff ff ff ff ff ff ff ff ff ff ff ff   ÿÿÿÿÿÿÿÿÿÿÿÿÿÿÿÿ 
    ff ff ff ff ff ff ff ff ff ff ff ff ff ff ff ff   ÿÿÿÿÿÿÿÿÿÿÿÿÿÿÿÿ 
    ff ff ff ff ff ff ff ff ff ff ff ff ff ff ff ff   ÿÿÿÿÿÿÿÿÿÿÿÿÿÿÿÿ 
    ff ff ff ff ff ff ff ff ff ff ff ff ff ff ff ff   ÿÿÿÿÿÿÿÿÿÿÿÿÿÿÿÿ 
    ff ff ff ff ff ff ff ff ff ff ff ff ff ff ff ff   ÿÿÿÿÿÿÿÿÿÿÿÿÿÿÿÿ 
    ff ff ff ff ff ff ff ff ff ff ff ff ff ff ff ff   ÿÿÿÿÿÿÿÿÿÿÿÿÿÿÿÿ 
    ff ff ff ff ff ff ff ff ff ff ff ff ff ff ff ff   ÿÿÿÿÿÿÿÿÿÿÿÿÿÿÿÿ 
    ff ff ff ff fd ff fd ff fc ff fa ff fc ff fc ff   ÿÿÿÿýÿýÿüÿúÿüÿüÿ 
    fb ff fd ff fb ff fc ff fb ff fb ff fa ff fb ff   ûÿýÿûÿüÿûÿûÿúÿûÿ 
    fa ff fb ff fa ff fb ff fa ff fb ff fa ff fb ff   úÿûÿúÿûÿúÿûÿúÿûÿ 
    fb ff fb ff fb ff fb ff fa ff fa ff fa ff fa ff   ûÿûÿûÿûÿúÿúÿúÿúÿ 
    fa ff fa ff fa ff fb ff fa ff fb ff fa ff fb ff   úÿúÿúÿûÿúÿûÿúÿûÿ 
    fa ff fb ff f9 ff fa ff f9 ff fa ff f9 ff fa ff   úÿûÿùÿúÿùÿúÿùÿúÿ 
    f9 ff fa ff f9 ff fa ff fa ff fa ff fa ff fb ff   ùÿúÿùÿúÿúÿúÿúÿûÿ 
    f9 ff fa 77 41                                    ùÿúwA            
    01 03 02 00 01 79 84                              .....y„          
    01 03 02 00 01 79 84                              .....y„          
    01 03 02 00 01 79 84                              .....y„          
    01 03 02 00 01 79 84                              .....y„          
    01 03 02 00 01 79 84                              .....y„          
    01 03 02 00 01 79 84                              .....y„          
    01 03 02 00 01 79 84                              .....y„          
    01 03 02 00 01 79 84                              .....y„          
    01 03 02 00 02 39 85                              .....9…          
    01 03 90 ff fc ff fc ff fc ff fc ff fc ff fc ff   ..ÿüÿüÿüÿüÿüÿüÿ 
    fc ff fc ff fc ff fc ff fc ff fc ff fc ff fc ff   üÿüÿüÿüÿüÿüÿüÿüÿ 
    fd ff fd ff fe 00 00 ff ff 00 00 ff ff ff ff ff   ýÿýÿþ..ÿÿ..ÿÿÿÿÿ 
    ff ff ff ff ff ff ff ff ff ff ff ff ff ff ff ff   ÿÿÿÿÿÿÿÿÿÿÿÿÿÿÿÿ 
    ff ff ff ff ff ff ff ff ff ff ff ff ff ff ff ff   ÿÿÿÿÿÿÿÿÿÿÿÿÿÿÿÿ 
    ff ff ff ff ff ff ff ff ff ff ff ff ff ff ff ff   ÿÿÿÿÿÿÿÿÿÿÿÿÿÿÿÿ 
    ff ff ff ff ff ff ff ff ff ff ff ff ff ff ff ff   ÿÿÿÿÿÿÿÿÿÿÿÿÿÿÿÿ 
    ff ff ff ff ff ff ff ff ff ff ff ff ff ff ff ff   ÿÿÿÿÿÿÿÿÿÿÿÿÿÿÿÿ 
    ff ff ff ff ff ff ff ff ff ff ff ff ff ff ff ff   ÿÿÿÿÿÿÿÿÿÿÿÿÿÿÿÿ 
    ff ff ff ff ff ff ff ff ff ff ff ff ff ff ff ff   ÿÿÿÿÿÿÿÿÿÿÿÿÿÿÿÿ 
    ff ff ff ff ff ff ff ff ff ff ff ff ff ff ff ff   ÿÿÿÿÿÿÿÿÿÿÿÿÿÿÿÿ 
    ff ff ff ff ff ff ff ff ff ff ff ff ff ff ff ff   ÿÿÿÿÿÿÿÿÿÿÿÿÿÿÿÿ 
    ff ff ff ff ff ff ff ff ff ff ff ff ff ff ff ff   ÿÿÿÿÿÿÿÿÿÿÿÿÿÿÿÿ 
    ff ff ff ff ff ff ff ff ff ff ff ff ff ff ff ff   ÿÿÿÿÿÿÿÿÿÿÿÿÿÿÿÿ 
    ff ff ff ff ff ff ff ff ff ff ff ff ff ff ff ff   ÿÿÿÿÿÿÿÿÿÿÿÿÿÿÿÿ 
    ff ff ff ff ff ff ff ff ff ff ff ff ff ff ff ff   ÿÿÿÿÿÿÿÿÿÿÿÿÿÿÿÿ 
    ff ff ff ff ff ff ff ff ff ff ff ff ff ff ff ff   ÿÿÿÿÿÿÿÿÿÿÿÿÿÿÿÿ 
    ff ff ff ff ff ff ff ff ff ff ff ff ff ff ff ff   ÿÿÿÿÿÿÿÿÿÿÿÿÿÿÿÿ 
    ff ff ff ff ff ff ff ff ff ff ff ff ff ff ff ff   ÿÿÿÿÿÿÿÿÿÿÿÿÿÿÿÿ 
    ff ff ff ff ff ff ff ff ff ff ff ff ff ff ff ff   ÿÿÿÿÿÿÿÿÿÿÿÿÿÿÿÿ 
    ff ff ff ff ff ff ff ff ff ff ff ff ff ff ff ff   ÿÿÿÿÿÿÿÿÿÿÿÿÿÿÿÿ 
    ff ff ff ff ff ff ff ff ff ff ff ff ff ff ff ff   ÿÿÿÿÿÿÿÿÿÿÿÿÿÿÿÿ 
    ff ff ff ff ff ff ff ff ff ff ff ff ff ff ff ff   ÿÿÿÿÿÿÿÿÿÿÿÿÿÿÿÿ 
    ff ff ff ff ff ff ff ff ff ff ff ff ff ff ff ff   ÿÿÿÿÿÿÿÿÿÿÿÿÿÿÿÿ 
    ff ff ff ff ff ff ff ff ff ff ff ff ff ff ff ff   ÿÿÿÿÿÿÿÿÿÿÿÿÿÿÿÿ 
    ff ff ff 2e 03                                    ÿÿÿ..            
    01 03 02 00 01 79 84                              .....y„          
    01 03 02 00 01 79 84                              .....y„          
    01 03 02 00 01 79 84                              .....y„          
    01 03 02 00 01 79 84                              .....y„          
    01 03 02 00 01 79 84                              .....y„          
    01 03 02 00 01 79 84                              .....y„          
    01 03 02 00 01 79 84                              .....y„          
    01 03 02 00 01 79 84                              .....y„          
    01 03 02 00 02 39 85                              .....9…          
    01 03 90 ff fb ff fb ff fb ff fb ff fb ff fb ff   ..ÿûÿûÿûÿûÿûÿûÿ 
    fb ff fb ff fb ff fb ff fb ff fb ff fb ff fb ff   ûÿûÿûÿûÿûÿûÿûÿûÿ 
    fa ff fa ff fa ff fa ff fa ff fa ff fa ff fa ff   úÿúÿúÿúÿúÿúÿúÿúÿ 
    fa ff fa ff fa ff fa ff fa ff fa ff f9 ff f9 ff   úÿúÿúÿúÿúÿúÿùÿùÿ 
    fa ff f9 ff fa ff fa ff fa ff fa ff fa ff fa ff   úÿùÿúÿúÿúÿúÿúÿúÿ 
    fa ff fa ff fa ff fa ff fb ff fa ff fa ff fa ff   úÿúÿúÿúÿûÿúÿúÿúÿ 
    fa ff fa ff fa ff fa ff fb ff fb ff fb ff fb ff   úÿúÿúÿúÿûÿûÿûÿûÿ 
    fb ff fb ff fb ff fa ff fb ff fb ff fb ff fb ff   ûÿûÿûÿúÿûÿûÿûÿûÿ 
    fb ff fb ff fc ff fb ff fc ff fc ff fc ff fc ff   ûÿûÿüÿûÿüÿüÿüÿüÿ 
    fc ff fc ff fb ff fb ff fb ff fc ff fc ff fc ff   üÿüÿûÿûÿûÿüÿüÿüÿ 
    fc ff fc ff fc ff fc ff fc ff fc ff fc ff fc ff   üÿüÿüÿüÿüÿüÿüÿüÿ 
    fd ff fd ff fe 00 00 ff ff 00 00 ff ff ff ff ff   ýÿýÿþ..ÿÿ..ÿÿÿÿÿ 
    ff ff ff ff ff ff ff ff ff ff ff ff ff ff ff ff   ÿÿÿÿÿÿÿÿÿÿÿÿÿÿÿÿ 
    ff ff ff ff ff ff ff ff ff ff ff ff ff ff ff ff   ÿÿÿÿÿÿÿÿÿÿÿÿÿÿÿÿ 
    ff ff ff ff ff ff ff ff ff ff ff ff ff ff ff ff   ÿÿÿÿÿÿÿÿÿÿÿÿÿÿÿÿ 
    ff ff ff ff ff ff ff ff ff ff ff ff ff ff ff ff   ÿÿÿÿÿÿÿÿÿÿÿÿÿÿÿÿ 
    ff ff ff ff ff ff ff ff ff ff ff ff ff ff ff ff   ÿÿÿÿÿÿÿÿÿÿÿÿÿÿÿÿ 
    ff ff ff ff ff ff ff ff ff ff ff ff ff ff ff ff   ÿÿÿÿÿÿÿÿÿÿÿÿÿÿÿÿ 
    ff ff ff ff ff ff ff ff ff ff ff ff ff ff ff ff   ÿÿÿÿÿÿÿÿÿÿÿÿÿÿÿÿ 
    ff ff ff ff ff ff ff ff ff ff ff ff ff ff ff ff   ÿÿÿÿÿÿÿÿÿÿÿÿÿÿÿÿ 
    ff ff ff ff ff ff ff ff ff ff ff ff ff ff ff ff   ÿÿÿÿÿÿÿÿÿÿÿÿÿÿÿÿ 
    ff ff ff ff ff ff ff ff ff ff ff ff ff ff ff ff   ÿÿÿÿÿÿÿÿÿÿÿÿÿÿÿÿ 
    ff ff ff ff ff ff ff ff ff ff ff ff ff ff ff ff   ÿÿÿÿÿÿÿÿÿÿÿÿÿÿÿÿ 
    ff ff ff ff ff ff ff ff ff ff ff ff ff ff ff ff   ÿÿÿÿÿÿÿÿÿÿÿÿÿÿÿÿ 
    ff ff ff ff ff ff ff ff ff ff ff ff ff ff ff ff   ÿÿÿÿÿÿÿÿÿÿÿÿÿÿÿÿ 
    ff ff ff 4e 14                                    ÿÿÿN.            
    01 03 02 00 01 79 84                              .....y„          
    01 03 02 00 01 79 84                              .....y„          
    01 03 02 00 01 79 84                              .....y„          
    01 03 02 00 01 79 84                              .....y„          
    01 03 02 00 01 79 84                              .....y„          
    01 03 02 00 01 79 84                              .....y„          
    01 03 02 00 01 79 84                              .....y„          
    01 03 02 00 01 79 84                              .....y„          
    01 03 02 00 02 39 85                              .....9…          
    01 03 90 ff ff ff ff ff ff ff ff ff ff ff ff ff   ..ÿÿÿÿÿÿÿÿÿÿÿÿÿ 
    ff ff ff ff ff ff ff ff ff ff ff ff ff ff ff ff   ÿÿÿÿÿÿÿÿÿÿÿÿÿÿÿÿ 
    ff ff ff ff ff ff ff ff ff ff ff ff ff ff ff ff   ÿÿÿÿÿÿÿÿÿÿÿÿÿÿÿÿ 
    ff ff ff ff ff ff ff ff ff ff ff ff ff ff ff ff   ÿÿÿÿÿÿÿÿÿÿÿÿÿÿÿÿ 
    ff ff ff ff ff ff ff ff ff ff ff ff ff ff ff ff   ÿÿÿÿÿÿÿÿÿÿÿÿÿÿÿÿ 
    ff ff ff ff ff ff ff ff ff ff ff ff ff ff ff ff   ÿÿÿÿÿÿÿÿÿÿÿÿÿÿÿÿ 
    ff ff ff ff ff ff ff ff ff ff ff ff ff ff ff ff   ÿÿÿÿÿÿÿÿÿÿÿÿÿÿÿÿ 
    ff ff ff ff ff ff ff ff ff ff fd ff fb ff fd ff   ÿÿÿÿÿÿÿÿÿÿýÿûÿýÿ 
    fa ff fb ff fc ff fb ff fc ff fb ff fb ff fb ff   úÿûÿüÿûÿüÿûÿûÿûÿ 
    fb ff fb ff fb ff fb ff fb ff fb ff fb ff fb ff   ûÿûÿûÿûÿûÿûÿûÿûÿ 
    fb ff fb ff fb ff fb ff fb ff fa ff fa ff fa ff   ûÿûÿûÿûÿûÿúÿúÿúÿ 
    fa ff fa ff fa ff fa ff fa ff fa ff fa ff fa ff   úÿúÿúÿúÿúÿúÿúÿúÿ 
    fa ff fa ff fa ff f9 ff fa ff f9 ff fa ff f9 ff   úÿúÿúÿùÿúÿùÿúÿùÿ 
    fa ff f9 ff fa ff fa ff fa ff fa ff fa ff fa ff   úÿùÿúÿúÿúÿúÿúÿúÿ 
    fa ff fa ff fa ff f9 ff fa ff fa ff fa ff fa ff   úÿúÿúÿùÿúÿúÿúÿúÿ 
    fa ff fa ff fa ff fa ff fb ff fa ff fb ff fb ff   úÿúÿúÿúÿûÿúÿûÿûÿ 
    fa ff fa ff fa ff fa ff fb ff fb ff fb ff fb ff   úÿúÿúÿúÿûÿûÿûÿûÿ 
    fb ff fb ff fc ff fb ff fc ff fc ff fb ff fb ff   ûÿûÿüÿûÿüÿüÿûÿûÿ 
    fb ff fb ff fb ff fb ff fc ff fc ff fc ff fc ff   ûÿûÿûÿûÿüÿüÿüÿüÿ 
    fc ff fc ff fc ff fc ff fc ff fb ff fb ff fb ff   üÿüÿüÿüÿüÿûÿûÿûÿ 
    fc ff fc ff fe 00 00 ff ff 00 00 ff ff ff ff ff   üÿüÿþ..ÿÿ..ÿÿÿÿÿ 
    ff ff ff ff ff ff ff ff ff ff ff ff ff ff ff ff   ÿÿÿÿÿÿÿÿÿÿÿÿÿÿÿÿ 
    ff ff ff ff ff ff ff ff ff ff ff ff ff ff ff ff   ÿÿÿÿÿÿÿÿÿÿÿÿÿÿÿÿ 
    ff ff ff ff ff ff ff ff ff ff ff ff ff ff ff ff   ÿÿÿÿÿÿÿÿÿÿÿÿÿÿÿÿ 
    ff ff ff ff ff ff ff ff ff ff ff ff ff ff ff ff   ÿÿÿÿÿÿÿÿÿÿÿÿÿÿÿÿ 
    ff ff ff 35 7d                                    ÿÿÿ5}            
    01 03 02 00 01 79 84                              .....y„          
    01 03 02 00 01 79 84                              .....y„          
    01 03 02 00 01 79 84                              .....y„          
    01 03 02 00 01 79 84                              .....y„          
    01 06 00 09 00 00 59 c8                           ......YÈ         
