    01 06 00 15 00 c8 99 98                           .....È™˜         
    01 06 00 18 00 c8 08 5b                           .....È.[         
    01 06 00 1b 03 e8 f9 73                           .....èùs         
    01 06 00 19 00 01 99 cd                           ......™Í         
    01 06 00 16 00 78 68 2c                           .....xh,         
    01 06 00 d0 00 64 89 d8                           ...Ð.d‰Ø         
    01 06 00 41 00 01 18 1e                           ...A....         
    01 06 00 42 00 00 29 de                           ...B..)Þ         
    01 06 00 09 00 01 98 08                           ......˜.         
    01 06 00 14 00 01 08 0e                           ........         
    01 03 02 00 01 79 84                              .....y„          
    01 03 02 00 01 79 84                              .....y„          
    01 03 02 00 01 79 84                              .....y„          
    01 03 02 00 01 79 84                              .....y„          
    01 03 02 00 01 79 84                              .....y„          
    01 03 02 00 01 79 84                              .....y„          
    01 03 02 00 01 79 84                              .....y„          
    01 03 02 00 01 79 84                              .....y„          
    01 03 02 00 01 79 84                              .....y„          
    01 03 02 00 01 79 84                              .....y„          
    01 03 02 00 02 39 85                              .....9…          
    01 03 90 ff fb ff fb ff fb ff fb ff fb ff fb ff   ..ÿûÿûÿûÿûÿûÿûÿ 
    fb ff fb ff fb ff fb ff fb ff fb ff fb ff fa ff   ûÿûÿûÿûÿûÿûÿûÿúÿ 
    fa ff fa ff fa ff fa ff fa ff fa ff fa ff fa ff   úÿúÿúÿúÿúÿúÿúÿúÿ 
    fa ff fa ff fb ff fa ff fb ff fa ff fa ff fa ff   úÿúÿûÿúÿûÿúÿúÿúÿ 
    fa ff fa ff fa ff fa ff fa ff fa ff fa ff fa ff   úÿúÿúÿúÿúÿúÿúÿúÿ 
    fa ff fb ff fb ff fa ff fa ff fa ff fa ff fa ff   úÿûÿûÿúÿúÿúÿúÿúÿ 
    fa ff fb ff fa ff fb ff fb ff fb ff fb ff fb ff   úÿûÿúÿûÿûÿûÿûÿûÿ 
    fb ff fb ff fa ff fb ff fb ff fb ff fb ff fb ff   ûÿûÿúÿûÿûÿûÿûÿûÿ 
    fb ff fc ff fc ff fc ff fc ff fc ff fc ff fc ff   ûÿüÿüÿüÿüÿüÿüÿüÿ 
    fb ff fc ff fb ff fc ff fc ff fc ff fc ff fc ff   ûÿüÿûÿüÿüÿüÿüÿüÿ 
    fc ff fc ff fc ff fc ff fc ff fd ff fb ff fc ff   üÿüÿüÿüÿüÿýÿûÿüÿ 
    fc ff fc ff fc ff fc ff fc ff fc ff fc ff fc ff   üÿüÿüÿüÿüÿüÿüÿüÿ 
    fc ff fc ff fc ff fc ff fc ff fb ff fb ff fc ff   üÿüÿüÿüÿüÿûÿûÿüÿ 
    fb ff fb ff fb ff fb ff fb ff fc ff fb ff fc ff   ûÿûÿûÿûÿûÿüÿûÿüÿ 
    fb ff fc ff fb ff fb ff fa ff fb ff fa ff fb ff   ûÿüÿûÿûÿúÿûÿúÿûÿ 
    fa ff fb ff fa ff fb ff fa ff fb ff fb ff fb ff   úÿûÿúÿûÿúÿûÿûÿûÿ 
    fb ff fb ff fa ff fa ff fa ff fa ff fa ff fb ff   ûÿûÿúÿúÿúÿúÿúÿûÿ 
    fa ff fb ff fa ff fb ff fa ff fb ff fb ff fb ff   úÿûÿúÿûÿúÿûÿûÿûÿ 
    fa ff fa ff fa ff fb ff fa ff fb ff fa ff fb ff   úÿúÿúÿûÿúÿûÿúÿûÿ 
    fb ff fb ff fb ff fc ff fb ff fc ff fa ff fb ff   ûÿûÿûÿüÿûÿüÿúÿûÿ 
    fb ff fb ff fb ff fc ff fb ff fc ff fb ff fc ff   ûÿûÿûÿüÿûÿüÿûÿüÿ 
    fc ff fc ff fc ff fd ff fc ff fc ff fb ff fc ff   üÿüÿüÿýÿüÿüÿûÿüÿ 
    fb ff fc ff fc ff fc ff fc ff fd ff fc ff fd ff   ûÿüÿüÿüÿüÿýÿüÿýÿ 
    fc ff fd ff fc ff fc ff fb 00 00 ff fe ff ff 00   üÿýÿüÿüÿû..ÿþÿÿ. 
    00 ff ff ff ff ff ff ff ff ff ff ff ff ff ff ff   .ÿÿÿÿÿÿÿÿÿÿÿÿÿÿÿ 
    ff ff ff 0a d9                                    ÿÿÿ.Ù            
    01 03 02 00 01 79 84                              .....y„          
    01 03 02 00 01 79 84                              .....y„          
    01 03 02 00 01 79 84                              .....y„          
    01 03 02 00 01 79 84                              .....y„          
    01 03 02 00 01 79 84                              .....y„          
    01 03 02 00 01 79 84                              .....y„          
    01 03 02 00 01 79 84                              .....y„          
    01 03 02 00 01 79 84                              .....y„          
    01 03 02 00 02 39 85                              .....9…          
    01 03 90 ff ff ff ff ff ff ff ff ff ff ff ff ff   ..ÿÿÿÿÿÿÿÿÿÿÿÿÿ 
    ff ff ff ff ff ff ff ff ff ff ff ff ff ff ff ff   ÿÿÿÿÿÿÿÿÿÿÿÿÿÿÿÿ 
    ff ff ff ff ff ff ff ff ff ff ff ff ff ff ff ff   ÿÿÿÿÿÿÿÿÿÿÿÿÿÿÿÿ 
    ff ff ff ff ff ff ff ff ff ff ff ff ff ff ff ff   ÿÿÿÿÿÿÿÿÿÿÿÿÿÿÿÿ 
    ff ff ff ff ff ff ff ff ff ff ff ff ff ff ff ff   ÿÿÿÿÿÿÿÿÿÿÿÿÿÿÿÿ 
    ff ff ff ff ff ff ff ff ff ff ff ff ff ff ff ff   ÿÿÿÿÿÿÿÿÿÿÿÿÿÿÿÿ 
    ff ff ff ff ff ff ff ff ff ff ff ff ff ff ff ff   ÿÿÿÿÿÿÿÿÿÿÿÿÿÿÿÿ 
    ff ff ff ff ff ff ff ff ff ff ff ff ff ff ff ff   ÿÿÿÿÿÿÿÿÿÿÿÿÿÿÿÿ 
    ff ff ff ff ff ff ff ff ff ff ff ff ff ff ff ff   ÿÿÿÿÿÿÿÿÿÿÿÿÿÿÿÿ 
    ff ff ff ff ff ff ff ff ff ff ff ff ff ff ff ff   ÿÿÿÿÿÿÿÿÿÿÿÿÿÿÿÿ 
    ff ff ff ff ff ff ff ff ff ff ff ff ff ff ff ff   ÿÿÿÿÿÿÿÿÿÿÿÿÿÿÿÿ 
    ff ff ff ff ff ff ff ff ff ff ff ff ff ff ff ff   ÿÿÿÿÿÿÿÿÿÿÿÿÿÿÿÿ 
    ff ff ff ff ff ff ff ff ff ff ff ff ff ff ff ff   ÿÿÿÿÿÿÿÿÿÿÿÿÿÿÿÿ 
    ff ff ff ff ff ff ff ff ff ff ff ff ff ff ff ff   ÿÿÿÿÿÿÿÿÿÿÿÿÿÿÿÿ 
    ff ff ff ff ff ff ff ff ff ff ff ff ff ff ff ff   ÿÿÿÿÿÿÿÿÿÿÿÿÿÿÿÿ 
    ff ff ff ff ff ff ff ff ff ff ff ff ff ff ff ff   ÿÿÿÿÿÿÿÿÿÿÿÿÿÿÿÿ 
    ff ff ff ff ff ff ff ff ff ff ff ff ff ff ff ff   ÿÿÿÿÿÿÿÿÿÿÿÿÿÿÿÿ 
    ff ff ff ff ff ff ff ff ff ff ff ff ff ff ff ff   ÿÿÿÿÿÿÿÿÿÿÿÿÿÿÿÿ 
    ff ff ff ff ff ff ff ff ff ff ff ff ff ff ff ff   ÿÿÿÿÿÿÿÿÿÿÿÿÿÿÿÿ 
    ff ff ff ff ff ff ff ff ff ff ff ff ff ff ff ff   ÿÿÿÿÿÿÿÿÿÿÿÿÿÿÿÿ 
    ff ff ff ff ff ff ff ff ff ff ff ff ff ff ff ff   ÿÿÿÿÿÿÿÿÿÿÿÿÿÿÿÿ 
    ff ff ff ff ff ff ff ff ff ff ff ff ff ff ff ff   ÿÿÿÿÿÿÿÿÿÿÿÿÿÿÿÿ 
    ff ff ff 00 00 00 00 00 00 00 00 00 00 00 00 00   ÿÿÿ............. 
    00 00 00 00 00 00 00 00 00 00 00 00 00 00 00 00   ................ 
    00 00 00 00 00 00 00 00 00 00 00 00 00 00 00 00   ................ 
    00 00 00 0b 6a                                    ....j            
    01 03 02 00 01 79 84                              .....y„          
    01 03 02 00 01 79 84                              .....y„          
    01 03 02 00 01 79 84                              .....y„          
    01 03 02 00 01 79 84                              .....y„          
    01 03 02 00 01 79 84                              .....y„          
    01 03 02 00 01 79 84                              .....y„          
    01 03 02 00 01 79 84                              .....y„          
    01 06 00 09 00 00 59 c8                           ......YÈ         
